Time [s], Analyzer Name, Decoded Protocol Result
1.894125110000000,USB LS and FS,byte=0xAA
1.894125778000000,USB LS and FS,byte=0x55
1.894126444000000,USB LS and FS,byte=0x53
1.894127110000000,USB LS and FS,byte=0x04
1.894127778000000,USB LS and FS,byte=0x1C
1.894128444000000,USB LS and FS,byte=0x01
1.894129110000000,USB LS and FS,byte=0x01
1.894129778000000,USB LS and FS,byte=0x73
1.906936890000000,USB LS and FS,Byte 0x20
1.906937554000000,USB LS and FS,Byte 0x55
1.906938218000000,USB LS and FS,Byte 0xAA
1.906938880000000,USB LS and FS,Byte 0x53
1.906939542000000,USB LS and FS,Byte 0x1C
1.906940208000000,USB LS and FS,Byte 0xFF
1.906940952000000,USB LS and FS,Byte 0x02
1.906941616000000,USB LS and FS,Byte 0x6D
1.906942278000000,USB LS and FS,Byte 0x55
1.906942942000000,USB LS and FS,Byte 0xAA
1.906943604000000,USB LS and FS,Byte 0x53
1.906944268000000,USB LS and FS,Byte 0x0E
1.906944932000000,USB LS and FS,Byte 0x35
1.906945592000000,USB LS and FS,Byte 0x00
1.906946256000000,USB LS and FS,Byte 0x00
1.906946922000000,USB LS and FS,Byte 0x01
1.906947584000000,USB LS and FS,Byte 0x6A
1.906948248000000,USB LS and FS,Byte 0xDD
1.906948910000000,USB LS and FS,Byte 0x39
1.906949574000000,USB LS and FS,Byte 0x1D
1.906950238000000,USB LS and FS,Byte 0xB9
1.906950900000000,USB LS and FS,Byte 0x03
1.906951562000000,USB LS and FS,Byte 0x1C
1.906952226000000,USB LS and FS,Byte 0x01
1.906952888000000,USB LS and FS,Byte 0x04
1.906953552000000,USB LS and FS,Byte 0x0C
1.906954216000000,USB LS and FS,Byte 0x55
1.906954878000000,USB LS and FS,Byte 0xAA
1.906955542000000,USB LS and FS,Byte 0x53
1.906956206000000,USB LS and FS,Byte 0x03
1.906956870000000,USB LS and FS,Byte 0x1D
1.906957532000000,USB LS and FS,Byte 0x01
1.906958194000000,USB LS and FS,Byte 0x72
1.906958858000000,USB LS and FS,Byte 0x20
1.906959522000000,USB LS and FS,Byte 0x55
1.906960184000000,USB LS and FS,Byte 0x44
1.906960848000000,USB LS and FS,Byte 0x33
1.906961510000000,USB LS and FS,Byte 0x55
1.906962174000000,USB LS and FS,Byte 0x07
1.906962838000000,USB LS and FS,Byte 0xC5
1.906963502000000,USB LS and FS,Byte 0xFF
1.906964246000000,USB LS and FS,Byte 0x77
1.906964992000000,USB LS and FS,Byte 0x75
1.906965654000000,USB LS and FS,Byte 0xEB
1.906966318000000,USB LS and FS,Byte 0xDB
1.906966980000000,USB LS and FS,Byte 0xFD
1.906967728000000,USB LS and FS,Byte 0x6D
1.906968390000000,USB LS and FS,Byte 0xFD
1.906969138000000,USB LS and FS,Byte 0xFB
1.906969802000000,USB LS and FS,Byte 0xAB
1.906970546000000,USB LS and FS,Byte 0xBD
1.906971208000000,USB LS and FS,Byte 0x6F
1.906971872000000,USB LS and FS,Byte 0x75
1.906972536000000,USB LS and FS,Byte 0x5D
1.906973198000000,USB LS and FS,Byte 0xFF
1.906973944000000,USB LS and FS,Byte 0xA7
1.906974608000000,USB LS and FS,Byte 0xDB
1.906975270000000,USB LS and FS,Byte 0xEB
1.906975934000000,USB LS and FS,Byte 0x7B
1.906976598000000,USB LS and FS,Byte 0x3B
1.906977260000000,USB LS and FS,Byte 0x9F
1.906977922000000,USB LS and FS,Byte 0xFD
1.906978670000000,USB LS and FS,Byte 0xBF
1.907936802000000,USB LS and FS,byte=0xAA
1.907937468000000,USB LS and FS,byte=0x55
1.907938136000000,USB LS and FS,byte=0x53
1.907938804000000,USB LS and FS,byte=0x35
1.907939470000000,USB LS and FS,byte=0xFF
1.907940220000000,USB LS and FS,byte=0x02
1.907940884000000,USB LS and FS,byte=0x86
1.908559008000000,USB LS and FS,byte=0xAA
1.908559676000000,USB LS and FS,byte=0x55
1.908560344000000,USB LS and FS,byte=0x53
1.908561010000000,USB LS and FS,byte=0x1D
1.908561676000000,USB LS and FS,byte=0xFF
1.908562426000000,USB LS and FS,byte=0x02
1.908563090000000,USB LS and FS,byte=0x6E
12.049558156000000,USB LS and FS,Byte 0x2D
12.049558818000000,USB LS and FS,Byte 0x55
12.049559479999999,USB LS and FS,Byte 0xAA
12.049560144000001,USB LS and FS,Byte 0x53
12.049560806000001,USB LS and FS,Byte 0x17
12.049561470000000,USB LS and FS,Byte 0x35
12.049562132000000,USB LS and FS,Byte 0x00
12.049562794000000,USB LS and FS,Byte 0x00
12.049563458000000,USB LS and FS,Byte 0x01
12.049564119999999,USB LS and FS,Byte 0x6A
12.049564783999999,USB LS and FS,Byte 0xDD
12.049565447999999,USB LS and FS,Byte 0x39
12.049566112000001,USB LS and FS,Byte 0x43
12.049566774000001,USB LS and FS,Byte 0x80
12.049567438000000,USB LS and FS,Byte 0x0C
12.049568100000000,USB LS and FS,Byte 0xA3
12.049568764000000,USB LS and FS,Byte 0x37
12.049569430000000,USB LS and FS,Byte 0x37
12.049570092000000,USB LS and FS,Byte 0x37
12.049570753999999,USB LS and FS,Byte 0x42
12.049571417999999,USB LS and FS,Byte 0x31
12.049572080000001,USB LS and FS,Byte 0x39
12.049572744000001,USB LS and FS,Byte 0x36
12.049573408000001,USB LS and FS,Byte 0x32
12.049574070000000,USB LS and FS,Byte 0x01
12.049574732000000,USB LS and FS,Byte 0x10
12.049575394000000,USB LS and FS,Byte 0x06
12.049576058000000,USB LS and FS,Byte 0x5B
12.049576721999999,USB LS and FS,Byte 0x55
12.049577383999999,USB LS and FS,Byte 0xAA
12.049578048000001,USB LS and FS,Byte 0x53
12.049578712000001,USB LS and FS,Byte 0x0E
12.049579374000000,USB LS and FS,Byte 0x20
12.049580038000000,USB LS and FS,Byte 0xA3
12.049580702000000,USB LS and FS,Byte 0x37
12.049581368000000,USB LS and FS,Byte 0x37
12.049582030000000,USB LS and FS,Byte 0x37
12.049582689999999,USB LS and FS,Byte 0x42
12.049583355999999,USB LS and FS,Byte 0x31
12.049584017999999,USB LS and FS,Byte 0x39
12.049584682000001,USB LS and FS,Byte 0x36
12.049585344000000,USB LS and FS,Byte 0x32
12.049586008000000,USB LS and FS,Byte 0x01
12.049586670000000,USB LS and FS,Byte 0x10
12.049587336000000,USB LS and FS,Byte 0x03
12.049587998000000,USB LS and FS,Byte 0xED
12.049588662000000,USB LS and FS,Byte 0x6D
12.049589323999999,USB LS and FS,Byte 0xFD
12.049590070000001,USB LS and FS,Byte 0xFB
12.049590736000001,USB LS and FS,Byte 0xAB
12.049591480000000,USB LS and FS,Byte 0xBD
12.049592144000000,USB LS and FS,Byte 0x6F
12.049592806000000,USB LS and FS,Byte 0x75
12.049593470000000,USB LS and FS,Byte 0x5D
12.049594131999999,USB LS and FS,Byte 0xFF
12.049594878000001,USB LS and FS,Byte 0xA7
12.049595542000000,USB LS and FS,Byte 0xDB
12.049596206000000,USB LS and FS,Byte 0xEB
12.049596870000000,USB LS and FS,Byte 0x7B
12.049597532000000,USB LS and FS,Byte 0x3B
12.049598194000000,USB LS and FS,Byte 0x9F
12.049598858000000,USB LS and FS,Byte 0xFD
12.049599604000001,USB LS and FS,Byte 0xBF
12.050645072000000,USB LS and FS,byte=0xAA
12.050645740000000,USB LS and FS,byte=0x55
12.050646408000000,USB LS and FS,byte=0x53
12.050647074000000,USB LS and FS,byte=0x35
12.050647742000001,USB LS and FS,byte=0xFF
12.050648490000000,USB LS and FS,byte=0x02
12.050649156000000,USB LS and FS,byte=0x86
12.052210712000001,USB LS and FS,byte=0xAA
12.052211379999999,USB LS and FS,byte=0x55
12.052212047999999,USB LS and FS,byte=0x53
12.052212711999999,USB LS and FS,byte=0x20
12.052213380000000,USB LS and FS,byte=0xFF
12.052214127999999,USB LS and FS,byte=0x02
12.052214795999999,USB LS and FS,byte=0x71
12.053827763999999,USB LS and FS,byte=0xAA
12.053828432000000,USB LS and FS,byte=0x55
12.053829100000000,USB LS and FS,byte=0x53
12.053829766000000,USB LS and FS,byte=0x1B
12.053830434000000,USB LS and FS,byte=0x21
12.053831100000000,USB LS and FS,byte=0x37
12.053831764000000,USB LS and FS,byte=0x37
12.053832432000000,USB LS and FS,byte=0x37
12.053833098000000,USB LS and FS,byte=0x42
12.053833766000000,USB LS and FS,byte=0x31
12.053834432000000,USB LS and FS,byte=0x39
12.053835098000000,USB LS and FS,byte=0x36
12.053835764000000,USB LS and FS,byte=0x32
12.053836432000001,USB LS and FS,byte=0x69
12.053837098000001,USB LS and FS,byte=0x36
12.053837765999999,USB LS and FS,byte=0x46
12.053838431999999,USB LS and FS,byte=0x37
12.053839097999999,USB LS and FS,byte=0x61
12.053839763999999,USB LS and FS,byte=0x34
12.053840431999999,USB LS and FS,byte=0x30
12.053841097999999,USB LS and FS,byte=0x38
12.053841764000000,USB LS and FS,byte=0x36
12.053842432000000,USB LS and FS,byte=0x61
12.053843098000000,USB LS and FS,byte=0x54
12.053843766000000,USB LS and FS,byte=0x75
12.053844432000000,USB LS and FS,byte=0x70
12.053845098000000,USB LS and FS,byte=0x39
12.053845764000000,USB LS and FS,byte=0x38
12.053846432000000,USB LS and FS,byte=0x4C
12.053847098000000,USB LS and FS,byte=0x07
12.053847764000000,USB LS and FS,byte=0xED
12.066557546000000,USB LS and FS,Byte 0x1F
12.066558292000000,USB LS and FS,Byte 0x55
12.066558954000000,USB LS and FS,Byte 0xAA
12.066559617999999,USB LS and FS,Byte 0x53
12.066560281999999,USB LS and FS,Byte 0x21
12.066560945999999,USB LS and FS,Byte 0xFF
12.066561692000001,USB LS and FS,Byte 0x02
12.066562354000000,USB LS and FS,Byte 0x72
12.066563020000000,USB LS and FS,Byte 0x55
12.066563682000000,USB LS and FS,Byte 0xAA
12.066564346000000,USB LS and FS,Byte 0x53
12.066565008000000,USB LS and FS,Byte 0x14
12.066565674000000,USB LS and FS,Byte 0x35
12.066566333999999,USB LS and FS,Byte 0x00
12.066566998000001,USB LS and FS,Byte 0x00
12.066567662000001,USB LS and FS,Byte 0x01
12.066568324000000,USB LS and FS,Byte 0x6A
12.066568990000000,USB LS and FS,Byte 0xDD
12.066569652000000,USB LS and FS,Byte 0x39
12.066570316000000,USB LS and FS,Byte 0x43
12.066570980000000,USB LS and FS,Byte 0x93
12.066571642000000,USB LS and FS,Byte 0x0A
12.066572308000000,USB LS and FS,Byte 0x21
12.066572969999999,USB LS and FS,Byte 0x37
12.066573633999999,USB LS and FS,Byte 0x37
12.066574298000001,USB LS and FS,Byte 0x37
12.066574960000001,USB LS and FS,Byte 0x42
12.066575624000000,USB LS and FS,Byte 0x31
12.066576288000000,USB LS and FS,Byte 0x39
12.066576950000000,USB LS and FS,Byte 0x36
12.066577614000000,USB LS and FS,Byte 0x05
12.066578276000000,USB LS and FS,Byte 0xA4
12.066578942000000,USB LS and FS,Byte 0x20
12.066579605999999,USB LS and FS,Byte 0xA3
12.066580267999999,USB LS and FS,Byte 0x37
12.066580932000001,USB LS and FS,Byte 0x37
12.066581596000001,USB LS and FS,Byte 0x37
12.066582258000000,USB LS and FS,Byte 0x42
12.066582922000000,USB LS and FS,Byte 0x31
12.066583586000000,USB LS and FS,Byte 0x39
12.066584248000000,USB LS and FS,Byte 0x36
12.066584910000000,USB LS and FS,Byte 0x32
12.066585576000000,USB LS and FS,Byte 0x01
12.066586237999999,USB LS and FS,Byte 0x10
12.066586901999999,USB LS and FS,Byte 0x03
12.066587566000001,USB LS and FS,Byte 0xED
12.066588230000001,USB LS and FS,Byte 0x6D
12.066588894000001,USB LS and FS,Byte 0xFD
12.066589640000000,USB LS and FS,Byte 0xFB
12.066590304000000,USB LS and FS,Byte 0xAB
12.066591047999999,USB LS and FS,Byte 0xBD
12.066591710000001,USB LS and FS,Byte 0x6F
12.066592374000001,USB LS and FS,Byte 0x75
12.066593040000001,USB LS and FS,Byte 0x5D
12.066593702000000,USB LS and FS,Byte 0xFF
12.066594448000000,USB LS and FS,Byte 0xA7
12.066595110000000,USB LS and FS,Byte 0xDB
12.066595774000000,USB LS and FS,Byte 0xEB
12.066596437999999,USB LS and FS,Byte 0x7B
12.066597099999999,USB LS and FS,Byte 0x3B
12.066597764000001,USB LS and FS,Byte 0x9F
12.066598426000001,USB LS and FS,Byte 0xFD
12.066599174000000,USB LS and FS,Byte 0xBF
12.067393888000000,USB LS and FS,byte=0xAA
12.067394556000000,USB LS and FS,byte=0x55
12.067395224000000,USB LS and FS,byte=0x53
12.067395890000000,USB LS and FS,byte=0x35
12.067396556000000,USB LS and FS,byte=0xFF
12.067397306000000,USB LS and FS,byte=0x02
12.067397972000000,USB LS and FS,byte=0x86
12.938524914000000,USB LS and FS,Byte 0x3D
12.938525576000000,USB LS and FS,Byte 0x55
12.938526240000000,USB LS and FS,Byte 0xAA
12.938526902000000,USB LS and FS,Byte 0x53
12.938527565999999,USB LS and FS,Byte 0x17
12.938528229999999,USB LS and FS,Byte 0x35
12.938528893999999,USB LS and FS,Byte 0x00
12.938529558000001,USB LS and FS,Byte 0x00
12.938530222000001,USB LS and FS,Byte 0x01
12.938530884000000,USB LS and FS,Byte 0x6A
12.938531550000000,USB LS and FS,Byte 0xDD
12.938532214000000,USB LS and FS,Byte 0x39
12.938532876000000,USB LS and FS,Byte 0x46
12.938533540000000,USB LS and FS,Byte 0xCE
12.938534202000000,USB LS and FS,Byte 0x0C
12.938534865999999,USB LS and FS,Byte 0xA5
12.938535529999999,USB LS and FS,Byte 0x37
12.938536192000001,USB LS and FS,Byte 0x37
12.938536856000001,USB LS and FS,Byte 0x37
12.938537518000000,USB LS and FS,Byte 0x42
12.938538180000000,USB LS and FS,Byte 0x31
12.938538844000000,USB LS and FS,Byte 0x39
12.938539506000000,USB LS and FS,Byte 0x36
12.938540170000000,USB LS and FS,Byte 0x32
12.938540833999999,USB LS and FS,Byte 0x01
12.938541495999999,USB LS and FS,Byte 0x10
12.938542160000001,USB LS and FS,Byte 0x06
12.938542824000001,USB LS and FS,Byte 0xAE
12.938543488000001,USB LS and FS,Byte 0x55
12.938544150000000,USB LS and FS,Byte 0xAA
12.938544816000000,USB LS and FS,Byte 0x53
12.938545478000000,USB LS and FS,Byte 0x1E
12.938546142000000,USB LS and FS,Byte 0x22
12.938546806000000,USB LS and FS,Byte 0xA5
12.938547467999999,USB LS and FS,Byte 0x37
12.938548131999999,USB LS and FS,Byte 0x37
12.938548795999999,USB LS and FS,Byte 0x37
12.938549458000001,USB LS and FS,Byte 0x42
12.938550124000001,USB LS and FS,Byte 0x31
12.938550786000000,USB LS and FS,Byte 0x39
12.938551448000000,USB LS and FS,Byte 0x36
12.938552112000000,USB LS and FS,Byte 0x32
12.938552778000000,USB LS and FS,Byte 0x15
12.938553442000000,USB LS and FS,Byte 0x45
12.938554104000000,USB LS and FS,Byte 0x20
12.938554767999999,USB LS and FS,Byte 0x37
12.938555429999999,USB LS and FS,Byte 0xF7
12.938556094000001,USB LS and FS,Byte 0x2E
12.938556756000001,USB LS and FS,Byte 0x3C
12.938557420000000,USB LS and FS,Byte 0xEF
12.938558084000000,USB LS and FS,Byte 0x0A
12.938558748000000,USB LS and FS,Byte 0x3E
12.938559410000000,USB LS and FS,Byte 0xCE
12.938560074000000,USB LS and FS,Byte 0x68
12.938560738000000,USB LS and FS,Byte 0x6F
12.938561401999999,USB LS and FS,Byte 0xDB
12.938562065999999,USB LS and FS,Byte 0x45
12.938562729999999,USB LS and FS,Byte 0x71
12.938563392000001,USB LS and FS,Byte 0x01
12.938564054000000,USB LS and FS,Byte 0x10
12.938564718000000,USB LS and FS,Byte 0x0A
12.938565382000000,USB LS and FS,Byte 0x80
12.938566046000000,USB LS and FS,Byte 0xBF
12.939205196000000,USB LS and FS,byte=0xAA
12.939205864000000,USB LS and FS,byte=0x55
12.939206532000000,USB LS and FS,byte=0x53
12.939207198000000,USB LS and FS,byte=0x35
12.939207866000000,USB LS and FS,byte=0xFF
12.939208614000000,USB LS and FS,byte=0x02
12.939209280000000,USB LS and FS,byte=0x86
12.939959225999999,USB LS and FS,byte=0xAA
12.939959893999999,USB LS and FS,byte=0x55
12.939960562000000,USB LS and FS,byte=0x53
12.939961225999999,USB LS and FS,byte=0x22
12.939961896000000,USB LS and FS,byte=0xFF
12.939962644000000,USB LS and FS,byte=0x02
12.939963312000000,USB LS and FS,byte=0x73
14.973296220000000,USB LS and FS,byte=0xAA
14.973296888000000,USB LS and FS,byte=0x55
14.973297556000000,USB LS and FS,byte=0x53
14.973298220000000,USB LS and FS,byte=0x04
14.973298888000000,USB LS and FS,byte=0x1C
14.973299554000000,USB LS and FS,byte=0x00
14.973300222000001,USB LS and FS,byte=0x01
14.973300888000001,USB LS and FS,byte=0x72
14.985448200000000,USB LS and FS,Byte 0x20
14.985448864000000,USB LS and FS,Byte 0x55
14.985449528000000,USB LS and FS,Byte 0xAA
14.985450188000000,USB LS and FS,Byte 0x53
14.985450854000000,USB LS and FS,Byte 0x1C
14.985451518000000,USB LS and FS,Byte 0xFF
14.985452262000001,USB LS and FS,Byte 0x02
14.985452926000001,USB LS and FS,Byte 0x6D
14.985453588000000,USB LS and FS,Byte 0x55
14.985454250000000,USB LS and FS,Byte 0xAA
14.985454914000000,USB LS and FS,Byte 0x53
14.985455576000000,USB LS and FS,Byte 0x0E
14.985456242000000,USB LS and FS,Byte 0x35
14.985456901999999,USB LS and FS,Byte 0x00
14.985457565999999,USB LS and FS,Byte 0x00
14.985458230000001,USB LS and FS,Byte 0x01
14.985458892000000,USB LS and FS,Byte 0x6A
14.985459556000000,USB LS and FS,Byte 0xDD
14.985460220000000,USB LS and FS,Byte 0x39
14.985460882000000,USB LS and FS,Byte 0x4E
14.985461544000000,USB LS and FS,Byte 0x72
14.985462208000000,USB LS and FS,Byte 0x03
14.985462871999999,USB LS and FS,Byte 0x1C
14.985463534000001,USB LS and FS,Byte 0x00
14.985464198000001,USB LS and FS,Byte 0x03
14.985464862000001,USB LS and FS,Byte 0xF5
14.985465524000000,USB LS and FS,Byte 0x55
14.985466186000000,USB LS and FS,Byte 0xAA
14.985466850000000,USB LS and FS,Byte 0x53
14.985467514000000,USB LS and FS,Byte 0x03
14.985468178000000,USB LS and FS,Byte 0x1D
14.985468839999999,USB LS and FS,Byte 0x01
14.985469503999999,USB LS and FS,Byte 0x72
14.985470168000001,USB LS and FS,Byte 0xA5
14.985470830000001,USB LS and FS,Byte 0x37
14.985471494000000,USB LS and FS,Byte 0x37
14.985472156000000,USB LS and FS,Byte 0x37
14.985472818000000,USB LS and FS,Byte 0x42
14.985473484000000,USB LS and FS,Byte 0x31
14.985474146000000,USB LS and FS,Byte 0x39
14.985474809999999,USB LS and FS,Byte 0x36
14.985475473999999,USB LS and FS,Byte 0x32
14.985476137999999,USB LS and FS,Byte 0x15
14.985476800000001,USB LS and FS,Byte 0x45
14.985477462000000,USB LS and FS,Byte 0x20
14.985478128000000,USB LS and FS,Byte 0x37
14.985478792000000,USB LS and FS,Byte 0xF7
14.985479454000000,USB LS and FS,Byte 0x2E
14.985480116000000,USB LS and FS,Byte 0x3C
14.985480780000000,USB LS and FS,Byte 0xEF
14.985481441999999,USB LS and FS,Byte 0x0A
14.985482105999999,USB LS and FS,Byte 0x3E
14.985482770000001,USB LS and FS,Byte 0xCE
14.985483432000001,USB LS and FS,Byte 0x68
14.985484096000000,USB LS and FS,Byte 0x6F
14.985484758000000,USB LS and FS,Byte 0xDB
14.985485422000000,USB LS and FS,Byte 0x45
14.985486086000000,USB LS and FS,Byte 0x71
14.985486750000000,USB LS and FS,Byte 0x01
14.985487411999999,USB LS and FS,Byte 0x10
14.985488073999999,USB LS and FS,Byte 0x0A
14.985488738000001,USB LS and FS,Byte 0x80
14.985489402000001,USB LS and FS,Byte 0xBF
14.986939756000000,USB LS and FS,byte=0xAA
14.986940424000000,USB LS and FS,byte=0x55
14.986941092000000,USB LS and FS,byte=0x53
14.986941758000000,USB LS and FS,byte=0x35
14.986942424000000,USB LS and FS,byte=0xFF
14.986943174000000,USB LS and FS,byte=0x02
14.986943838000000,USB LS and FS,byte=0x86
14.994348898000000,USB LS and FS,byte=0xAA
14.994349566000000,USB LS and FS,byte=0x55
14.994350234000001,USB LS and FS,byte=0x53
14.994350900000001,USB LS and FS,byte=0x1D
14.994351566000001,USB LS and FS,byte=0xFF
14.994352316000001,USB LS and FS,byte=0x02
14.994352980000000,USB LS and FS,byte=0x6E
16.232737965999998,USB LS and FS,byte=0xAA
16.232738634000000,USB LS and FS,byte=0x55
16.232739301999999,USB LS and FS,byte=0x53
16.232739968000001,USB LS and FS,byte=0x0D
16.232740633999999,USB LS and FS,byte=0x23
16.232741302000001,USB LS and FS,byte=0x37
16.232741965999999,USB LS and FS,byte=0x37
16.232742634000001,USB LS and FS,byte=0x37
16.232743299999999,USB LS and FS,byte=0x42
16.232743966000001,USB LS and FS,byte=0x31
16.232744633999999,USB LS and FS,byte=0x39
16.232745300000001,USB LS and FS,byte=0x36
16.232745966000000,USB LS and FS,byte=0x32
16.232746634000002,USB LS and FS,byte=0xFF
16.232747381999999,USB LS and FS,byte=0x04
16.232748050000001,USB LS and FS,byte=0x04
16.232748716000000,USB LS and FS,byte=0x3E
16.245401004000001,USB LS and FS,Byte 0x29
16.245401663999999,USB LS and FS,Byte 0x55
16.245402330000001,USB LS and FS,Byte 0xAA
16.245402989999999,USB LS and FS,Byte 0x53
16.245403656000001,USB LS and FS,Byte 0x23
16.245404321999999,USB LS and FS,Byte 0xFF
16.245405066000000,USB LS and FS,Byte 0x02
16.245405728000001,USB LS and FS,Byte 0x74
16.245406394000000,USB LS and FS,Byte 0x55
16.245407056000001,USB LS and FS,Byte 0xAA
16.245407721999999,USB LS and FS,Byte 0x53
16.245408384000001,USB LS and FS,Byte 0x17
16.245409047999999,USB LS and FS,Byte 0x35
16.245409710000001,USB LS and FS,Byte 0x00
16.245410373999999,USB LS and FS,Byte 0x00
16.245411038000000,USB LS and FS,Byte 0x01
16.245411701999998,USB LS and FS,Byte 0x6A
16.245412364000000,USB LS and FS,Byte 0xDD
16.245413028000002,USB LS and FS,Byte 0x39
16.245413692000000,USB LS and FS,Byte 0x53
16.245414356000001,USB LS and FS,Byte 0x23
16.245415017999999,USB LS and FS,Byte 0x0C
16.245415682000001,USB LS and FS,Byte 0x23
