Time [s], Analyzer Name, Decoded Protocol Result
1.696264492000000,USB LS and FS,byte=0xAA
1.696265160000000,USB LS and FS,byte=0x55
1.696265828000000,USB LS and FS,byte=0x53
1.696266492000000,USB LS and FS,byte=0x04
1.696267160000000,USB LS and FS,byte=0x1C
1.696267828000000,USB LS and FS,byte=0x01
1.696268494000000,USB LS and FS,byte=0x01
1.696269162000000,USB LS and FS,byte=0x73
1.708944528000000,USB LS and FS,Byte 0x20
1.708945192000000,USB LS and FS,Byte 0x55
1.708945856000000,USB LS and FS,Byte 0xAA
1.708946518000000,USB LS and FS,Byte 0x53
1.708947184000000,USB LS and FS,Byte 0x1C
1.708947848000000,USB LS and FS,Byte 0xFF
1.708948592000000,USB LS and FS,Byte 0x02
1.708949256000000,USB LS and FS,Byte 0x6D
1.708949918000000,USB LS and FS,Byte 0x55
1.708950582000000,USB LS and FS,Byte 0xAA
1.708951246000000,USB LS and FS,Byte 0x53
1.708951908000000,USB LS and FS,Byte 0x0E
1.708952572000000,USB LS and FS,Byte 0x35
1.708953234000000,USB LS and FS,Byte 0x00
1.708953896000000,USB LS and FS,Byte 0x00
1.708954562000000,USB LS and FS,Byte 0x01
1.708955224000000,USB LS and FS,Byte 0x6A
1.708955888000000,USB LS and FS,Byte 0xDD
1.708956550000000,USB LS and FS,Byte 0x30
1.708957214000000,USB LS and FS,Byte 0xBE
1.708957876000000,USB LS and FS,Byte 0xDB
1.708958542000000,USB LS and FS,Byte 0x03
1.708959206000000,USB LS and FS,Byte 0x1C
1.708959870000000,USB LS and FS,Byte 0x01
1.708960532000000,USB LS and FS,Byte 0x04
1.708961194000000,USB LS and FS,Byte 0xC6
1.708961860000000,USB LS and FS,Byte 0x55
1.708962520000000,USB LS and FS,Byte 0xAA
1.708963184000000,USB LS and FS,Byte 0x53
1.708963848000000,USB LS and FS,Byte 0x03
1.708964512000000,USB LS and FS,Byte 0x1D
1.708965174000000,USB LS and FS,Byte 0x01
1.708965838000000,USB LS and FS,Byte 0x72
1.708966500000000,USB LS and FS,Byte 0x20
1.708967164000000,USB LS and FS,Byte 0x55
1.708967826000000,USB LS and FS,Byte 0x44
1.708968492000000,USB LS and FS,Byte 0x33
1.708969154000000,USB LS and FS,Byte 0x55
1.708969818000000,USB LS and FS,Byte 0x07
1.708970482000000,USB LS and FS,Byte 0xC5
1.708971146000000,USB LS and FS,Byte 0xFF
1.708971892000000,USB LS and FS,Byte 0x77
1.708972638000000,USB LS and FS,Byte 0x75
1.708973302000000,USB LS and FS,Byte 0xEB
1.708973966000000,USB LS and FS,Byte 0xDB
1.708974630000000,USB LS and FS,Byte 0xFD
1.708975374000000,USB LS and FS,Byte 0x6D
1.708976038000000,USB LS and FS,Byte 0xFD
1.708976782000000,USB LS and FS,Byte 0xFB
1.708977448000000,USB LS and FS,Byte 0xAB
1.708978192000000,USB LS and FS,Byte 0xBD
1.708978854000000,USB LS and FS,Byte 0x6F
1.708979518000000,USB LS and FS,Byte 0x75
1.708980180000000,USB LS and FS,Byte 0x5D
1.708980844000000,USB LS and FS,Byte 0xFF
1.708981590000000,USB LS and FS,Byte 0xA7
1.708982254000000,USB LS and FS,Byte 0xDB
1.708982918000000,USB LS and FS,Byte 0xEB
1.708983580000000,USB LS and FS,Byte 0x7B
1.708984244000000,USB LS and FS,Byte 0x3B
1.708984906000000,USB LS and FS,Byte 0x9F
1.708985568000000,USB LS and FS,Byte 0xFD
1.708986316000000,USB LS and FS,Byte 0xBF
1.710573984000000,USB LS and FS,byte=0xAA
1.710574652000000,USB LS and FS,byte=0x55
1.710575320000000,USB LS and FS,byte=0x53
1.710575988000000,USB LS and FS,byte=0x35
1.710576654000000,USB LS and FS,byte=0xFF
1.710577402000000,USB LS and FS,byte=0x02
1.710578068000000,USB LS and FS,byte=0x86
1.712283530000000,USB LS and FS,byte=0xAA
1.712284198000000,USB LS and FS,byte=0x55
1.712284866000000,USB LS and FS,byte=0x53
1.712285534000000,USB LS and FS,byte=0x1D
1.712286200000000,USB LS and FS,byte=0xFF
1.712286950000000,USB LS and FS,byte=0x02
1.712287614000000,USB LS and FS,byte=0x6E
8.503988668000000,USB LS and FS,byte=0xAA
8.503989336000000,USB LS and FS,byte=0x55
8.503990004000000,USB LS and FS,byte=0x53
8.503990668000000,USB LS and FS,byte=0x04
8.503991336000000,USB LS and FS,byte=0x1C
8.503992000000000,USB LS and FS,byte=0x00
8.503992670000001,USB LS and FS,byte=0x01
8.503993336000001,USB LS and FS,byte=0x72
8.515691444000000,USB LS and FS,Byte 0x20
8.515692108000000,USB LS and FS,Byte 0x55
8.515692772000000,USB LS and FS,Byte 0xAA
8.515693432000001,USB LS and FS,Byte 0x53
8.515694096000001,USB LS and FS,Byte 0x1C
8.515694760000001,USB LS and FS,Byte 0xFF
8.515695504000000,USB LS and FS,Byte 0x02
8.515696170000000,USB LS and FS,Byte 0x6D
8.515696830000000,USB LS and FS,Byte 0x55
8.515697491999999,USB LS and FS,Byte 0xAA
8.515698155999999,USB LS and FS,Byte 0x53
8.515698818000001,USB LS and FS,Byte 0x0E
8.515699482000000,USB LS and FS,Byte 0x35
8.515700142000000,USB LS and FS,Byte 0x00
8.515700806000000,USB LS and FS,Byte 0x00
8.515701470000000,USB LS and FS,Byte 0x01
8.515702131999999,USB LS and FS,Byte 0x6A
8.515702793999999,USB LS and FS,Byte 0xDD
8.515703458000001,USB LS and FS,Byte 0x30
8.515704120000001,USB LS and FS,Byte 0xD8
8.515704784000000,USB LS and FS,Byte 0x37
8.515705446000000,USB LS and FS,Byte 0x03
8.515706108000000,USB LS and FS,Byte 0x1C
8.515706770000000,USB LS and FS,Byte 0x00
8.515707433999999,USB LS and FS,Byte 0x04
8.515708099999999,USB LS and FS,Byte 0x3B
8.515708760000001,USB LS and FS,Byte 0x55
8.515709424000001,USB LS and FS,Byte 0xAA
8.515710086000000,USB LS and FS,Byte 0x53
8.515710750000000,USB LS and FS,Byte 0x03
8.515711414000000,USB LS and FS,Byte 0x1D
8.515712076000000,USB LS and FS,Byte 0x01
8.515712738000000,USB LS and FS,Byte 0x72
8.515713401999999,USB LS and FS,Byte 0x20
8.515714064000001,USB LS and FS,Byte 0x55
8.515714728000001,USB LS and FS,Byte 0x44
8.515715392000001,USB LS and FS,Byte 0x33
8.515716054000000,USB LS and FS,Byte 0x55
8.515716718000000,USB LS and FS,Byte 0x07
8.515717382000000,USB LS and FS,Byte 0xC5
8.515718046000000,USB LS and FS,Byte 0xFF
8.515718789999999,USB LS and FS,Byte 0x77
8.515719536000001,USB LS and FS,Byte 0x75
8.515720198000000,USB LS and FS,Byte 0xEB
8.515720862000000,USB LS and FS,Byte 0xDB
8.515721524000000,USB LS and FS,Byte 0xFD
8.515722269999999,USB LS and FS,Byte 0x6D
8.515722931999999,USB LS and FS,Byte 0xFD
8.515723680000001,USB LS and FS,Byte 0xFB
8.515724344000001,USB LS and FS,Byte 0xAB
8.515725086000000,USB LS and FS,Byte 0xBD
8.515725750000000,USB LS and FS,Byte 0x6F
8.515726411999999,USB LS and FS,Byte 0x75
8.515727077999999,USB LS and FS,Byte 0x5D
8.515727738000001,USB LS and FS,Byte 0xFF
8.515728484000000,USB LS and FS,Byte 0xA7
8.515729146000000,USB LS and FS,Byte 0xDB
8.515729808000000,USB LS and FS,Byte 0xEB
8.515730472000000,USB LS and FS,Byte 0x7B
8.515731133999999,USB LS and FS,Byte 0x3B
8.515731796000001,USB LS and FS,Byte 0x9F
8.515732458000000,USB LS and FS,Byte 0xFD
8.515733204000000,USB LS and FS,Byte 0xBF
8.516438206000000,USB LS and FS,byte=0xAA
8.516438874000000,USB LS and FS,byte=0x55
8.516439542000001,USB LS and FS,byte=0x53
8.516440208000001,USB LS and FS,byte=0x35
8.516440874000001,USB LS and FS,byte=0xFF
8.516441624000000,USB LS and FS,byte=0x02
8.516442288000000,USB LS and FS,byte=0x86
8.526761976000000,USB LS and FS,byte=0xAA
8.526762644000000,USB LS and FS,byte=0x55
8.526763312000000,USB LS and FS,byte=0x53
8.526763978000000,USB LS and FS,byte=0x1D
8.526764646000000,USB LS and FS,byte=0xFF
8.526765394000000,USB LS and FS,byte=0x02
8.526766060000000,USB LS and FS,byte=0x6E
