Time [s], Analyzer Name, Decoded Protocol Result
4.403957714000000,USB LS and FS,byte=0xAA
4.403958382000000,USB LS and FS,byte=0x55
4.403959050000000,USB LS and FS,byte=0x43
4.403959716000000,USB LS and FS,byte=0x03
4.403960382000000,USB LS and FS,byte=0x27
4.403961048000000,USB LS and FS,byte=0x01
4.403961714000000,USB LS and FS,byte=0x6C
4.404174124000000,USB LS and FS,Byte 0x08
4.404174790000000,USB LS and FS,Byte 0x55
4.404175452000000,USB LS and FS,Byte 0xAA
4.404176114000000,USB LS and FS,Byte 0x43
4.404176778000000,USB LS and FS,Byte 0x04
4.404177442000000,USB LS and FS,Byte 0x28
4.404178104000000,USB LS and FS,Byte 0x01
4.404178768000000,USB LS and FS,Byte 0x01
4.404179430000000,USB LS and FS,Byte 0x6F
4.404180094000000,USB LS and FS,Byte 0xAA
4.404180758000000,USB LS and FS,Byte 0x53
4.404181420000000,USB LS and FS,Byte 0x0E
4.404182084000000,USB LS and FS,Byte 0x35
4.404182746000000,USB LS and FS,Byte 0x00
4.404183410000000,USB LS and FS,Byte 0x00
4.404184072000000,USB LS and FS,Byte 0x00
4.404184734000000,USB LS and FS,Byte 0x00
4.404185398000000,USB LS and FS,Byte 0x00
4.404186060000000,USB LS and FS,Byte 0x00
4.404186724000000,USB LS and FS,Byte 0x00
4.404187386000000,USB LS and FS,Byte 0x00
4.404188052000000,USB LS and FS,Byte 0x03
4.404188714000000,USB LS and FS,Byte 0x14
4.404189378000000,USB LS and FS,Byte 0xFF
4.404190124000000,USB LS and FS,Byte 0x02
4.404190788000000,USB LS and FS,Byte 0xAB
4.404191450000000,USB LS and FS,Byte 0x55
4.404192114000000,USB LS and FS,Byte 0xAA
4.404192778000000,USB LS and FS,Byte 0x53
4.404193442000000,USB LS and FS,Byte 0x03
4.404194106000000,USB LS and FS,Byte 0x15
4.404194770000000,USB LS and FS,Byte 0x01
4.404195430000000,USB LS and FS,Byte 0x6A
4.404196094000000,USB LS and FS,Byte 0x32
4.404196756000000,USB LS and FS,Byte 0x36
4.404197418000000,USB LS and FS,Byte 0x30
4.404198084000000,USB LS and FS,Byte 0x03
4.404198746000000,USB LS and FS,Byte 0x4F
4.404199408000000,USB LS and FS,Byte 0x07
4.404200072000000,USB LS and FS,Byte 0xC5
4.404200736000000,USB LS and FS,Byte 0x67
4.404201398000000,USB LS and FS,Byte 0xF9
4.404202064000000,USB LS and FS,Byte 0x49
4.404202808000000,USB LS and FS,Byte 0xA2
4.404203470000000,USB LS and FS,Byte 0x37
4.404204132000000,USB LS and FS,Byte 0x37
4.404204796000000,USB LS and FS,Byte 0x37
4.404205458000000,USB LS and FS,Byte 0x41
4.404206122000000,USB LS and FS,Byte 0x43
4.404206782000000,USB LS and FS,Byte 0x32
4.404207446000000,USB LS and FS,Byte 0x36
4.404208110000000,USB LS and FS,Byte 0x30
4.404208772000000,USB LS and FS,Byte 0x02
4.404209436000000,USB LS and FS,Byte 0x11
4.404210100000000,USB LS and FS,Byte 0x67
4.404210760000000,USB LS and FS,Byte 0x00
4.404211424000000,USB LS and FS,Byte 0x01
4.404212086000000,USB LS and FS,Byte 0x00
4.404212748000000,USB LS and FS,Byte 0x00
4.404213410000000,USB LS and FS,Byte 0x06
4.404214076000000,USB LS and FS,Byte 0x25
4.404214738000000,USB LS and FS,Byte 0x07
4.404215400000000,USB LS and FS,Byte 0x82
4.704589900000000,USB LS and FS,byte=0xAA
4.704590568000000,USB LS and FS,byte=0x55
4.704591236000000,USB LS and FS,byte=0x43
4.704591902000000,USB LS and FS,byte=0x13
4.704592568000000,USB LS and FS,byte=0x02
4.704593234000000,USB LS and FS,byte=0x37
4.704593900000000,USB LS and FS,byte=0x76
4.704594568000000,USB LS and FS,byte=0x38
4.704595236000000,USB LS and FS,byte=0x77
4.704595900000000,USB LS and FS,byte=0x6E
4.704596568000000,USB LS and FS,byte=0x37
4.704597236000000,USB LS and FS,byte=0x35
4.704597902000000,USB LS and FS,byte=0x73
4.704598568000000,USB LS and FS,byte=0x49
4.704599236000000,USB LS and FS,byte=0x6D
4.704599902000000,USB LS and FS,byte=0x38
4.704600568000000,USB LS and FS,byte=0x46
4.704601234000000,USB LS and FS,byte=0x31
4.704601902000000,USB LS and FS,byte=0x67
4.704602568000000,USB LS and FS,byte=0x6E
4.704603236000000,USB LS and FS,byte=0x31
4.704603902000000,USB LS and FS,byte=0x06
4.704604568000000,USB LS and FS,byte=0x6B
4.709162670000000,USB LS and FS,Byte 0x17
4.709163334000000,USB LS and FS,Byte 0x55
4.709163994000000,USB LS and FS,Byte 0xAA
4.709164658000000,USB LS and FS,Byte 0x43
4.709165320000000,USB LS and FS,Byte 0x13
4.709165984000000,USB LS and FS,Byte 0x03
4.709166646000000,USB LS and FS,Byte 0x9C
4.709167310000000,USB LS and FS,Byte 0x2D
4.709167974000000,USB LS and FS,Byte 0x81
4.709168636000000,USB LS and FS,Byte 0x6F
4.709169298000000,USB LS and FS,Byte 0x49
4.709169962000000,USB LS and FS,Byte 0x0B
4.709170626000000,USB LS and FS,Byte 0x5F
4.709171286000000,USB LS and FS,Byte 0x22
4.709171948000000,USB LS and FS,Byte 0xFC
4.709172694000000,USB LS and FS,Byte 0x0C
4.709173358000000,USB LS and FS,Byte 0xD6
4.709174020000000,USB LS and FS,Byte 0x48
4.709174684000000,USB LS and FS,Byte 0x5F
4.709175348000000,USB LS and FS,Byte 0x3B
4.709176010000000,USB LS and FS,Byte 0x8E
4.709176674000000,USB LS and FS,Byte 0x0A
4.709177336000000,USB LS and FS,Byte 0x07
4.709177998000000,USB LS and FS,Byte 0x3E
4.709178662000000,USB LS and FS,Byte 0x02
4.709179326000000,USB LS and FS,Byte 0xAB
4.709179988000000,USB LS and FS,Byte 0x55
4.709180652000000,USB LS and FS,Byte 0xAA
4.709181316000000,USB LS and FS,Byte 0x53
4.709181978000000,USB LS and FS,Byte 0x03
4.709182640000000,USB LS and FS,Byte 0x15
4.709183304000000,USB LS and FS,Byte 0x01
4.709183966000000,USB LS and FS,Byte 0x6A
4.709184628000000,USB LS and FS,Byte 0x32
4.709185290000000,USB LS and FS,Byte 0x36
4.709185952000000,USB LS and FS,Byte 0x30
4.709186618000000,USB LS and FS,Byte 0x03
4.709187280000000,USB LS and FS,Byte 0x4F
4.709187942000000,USB LS and FS,Byte 0x07
4.709188606000000,USB LS and FS,Byte 0xC5
4.709189270000000,USB LS and FS,Byte 0x67
4.709189930000000,USB LS and FS,Byte 0xF9
4.709190596000000,USB LS and FS,Byte 0x49
4.709191340000000,USB LS and FS,Byte 0xA2
4.709192002000000,USB LS and FS,Byte 0x37
4.709192664000000,USB LS and FS,Byte 0x37
4.709193330000000,USB LS and FS,Byte 0x37
4.709193990000000,USB LS and FS,Byte 0x41
4.709194654000000,USB LS and FS,Byte 0x43
4.709195314000000,USB LS and FS,Byte 0x32
4.709195978000000,USB LS and FS,Byte 0x36
4.709196640000000,USB LS and FS,Byte 0x30
4.709197304000000,USB LS and FS,Byte 0x02
4.709197968000000,USB LS and FS,Byte 0x11
4.709198632000000,USB LS and FS,Byte 0x67
4.709199292000000,USB LS and FS,Byte 0x00
4.709199956000000,USB LS and FS,Byte 0x01
4.709200616000000,USB LS and FS,Byte 0x00
4.709201280000000,USB LS and FS,Byte 0x00
4.709201942000000,USB LS and FS,Byte 0x06
4.709202608000000,USB LS and FS,Byte 0x25
4.709203270000000,USB LS and FS,Byte 0x07
4.709203932000000,USB LS and FS,Byte 0x82
5.006048694000000,USB LS and FS,byte=0xAA
5.006049360000000,USB LS and FS,byte=0x55
5.006050030000000,USB LS and FS,byte=0x43
5.006050694000000,USB LS and FS,byte=0x03
5.006051362000000,USB LS and FS,byte=0x04
5.006052028000000,USB LS and FS,byte=0x01
5.006052694000000,USB LS and FS,byte=0x49
5.007151452000000,USB LS and FS,Byte 0x0F
5.007152196000000,USB LS and FS,Byte 0x55
5.007152860000000,USB LS and FS,Byte 0xAA
5.007153522000000,USB LS and FS,Byte 0x43
5.007154186000000,USB LS and FS,Byte 0x0B
5.007154848000000,USB LS and FS,Byte 0x05
5.007155510000000,USB LS and FS,Byte 0x37
5.007156174000000,USB LS and FS,Byte 0x37
5.007156836000000,USB LS and FS,Byte 0x37
5.007157500000000,USB LS and FS,Byte 0x41
5.007158162000000,USB LS and FS,Byte 0x46
5.007158824000000,USB LS and FS,Byte 0x39
5.007159488000000,USB LS and FS,Byte 0x42
5.007160150000000,USB LS and FS,Byte 0x46
5.007160814000000,USB LS and FS,Byte 0x03
5.007161478000000,USB LS and FS,Byte 0x3F
5.007162222000000,USB LS and FS,Byte 0xD6
5.007162884000000,USB LS and FS,Byte 0x48
5.007163550000000,USB LS and FS,Byte 0x5F
5.007164212000000,USB LS and FS,Byte 0x3B
5.007164874000000,USB LS and FS,Byte 0x8E
5.007165538000000,USB LS and FS,Byte 0x0A
5.007166200000000,USB LS and FS,Byte 0x07
5.007166862000000,USB LS and FS,Byte 0x3E
5.007167526000000,USB LS and FS,Byte 0x02
5.007168190000000,USB LS and FS,Byte 0xAB
5.007168850000000,USB LS and FS,Byte 0x55
5.007169514000000,USB LS and FS,Byte 0xAA
5.007170178000000,USB LS and FS,Byte 0x53
5.007170840000000,USB LS and FS,Byte 0x03
5.007171504000000,USB LS and FS,Byte 0x15
5.007172168000000,USB LS and FS,Byte 0x01
5.007172830000000,USB LS and FS,Byte 0x6A
5.007173492000000,USB LS and FS,Byte 0x32
5.007174156000000,USB LS and FS,Byte 0x36
5.007174818000000,USB LS and FS,Byte 0x30
5.007175484000000,USB LS and FS,Byte 0x03
5.007176146000000,USB LS and FS,Byte 0x4F
5.007176808000000,USB LS and FS,Byte 0x07
5.007177472000000,USB LS and FS,Byte 0xC5
5.007178136000000,USB LS and FS,Byte 0x67
5.007178798000000,USB LS and FS,Byte 0xF9
5.007179462000000,USB LS and FS,Byte 0x49
5.007180206000000,USB LS and FS,Byte 0xA2
5.007180870000000,USB LS and FS,Byte 0x37
5.007181532000000,USB LS and FS,Byte 0x37
5.007182196000000,USB LS and FS,Byte 0x37
5.007182858000000,USB LS and FS,Byte 0x41
5.007183522000000,USB LS and FS,Byte 0x43
5.007184184000000,USB LS and FS,Byte 0x32
5.007184848000000,USB LS and FS,Byte 0x36
5.007185512000000,USB LS and FS,Byte 0x30
5.007186174000000,USB LS and FS,Byte 0x02
5.007186838000000,USB LS and FS,Byte 0x11
5.007187500000000,USB LS and FS,Byte 0x67
5.007188162000000,USB LS and FS,Byte 0x00
5.007188826000000,USB LS and FS,Byte 0x01
5.007189486000000,USB LS and FS,Byte 0x00
5.007190150000000,USB LS and FS,Byte 0x00
5.007190814000000,USB LS and FS,Byte 0x06
5.007191478000000,USB LS and FS,Byte 0x25
5.007192142000000,USB LS and FS,Byte 0x07
5.007192804000000,USB LS and FS,Byte 0x82
5.306727956000000,USB LS and FS,byte=0xAA
5.306728624000000,USB LS and FS,byte=0x55
5.306729292000000,USB LS and FS,byte=0x43
5.306729958000000,USB LS and FS,byte=0x03
5.306730624000000,USB LS and FS,byte=0x06
5.306731290000000,USB LS and FS,byte=0x01
5.306731958000000,USB LS and FS,byte=0x4B
5.307140188000000,USB LS and FS,Byte 0x17
5.307140850000000,USB LS and FS,Byte 0x55
5.307141510000000,USB LS and FS,Byte 0xAA
5.307142174000000,USB LS and FS,Byte 0x43
5.307142836000000,USB LS and FS,Byte 0x13
5.307143498000000,USB LS and FS,Byte 0x07
5.307144160000000,USB LS and FS,Byte 0x32
5.307144820000000,USB LS and FS,Byte 0x32
5.307145484000000,USB LS and FS,Byte 0x34
5.307146146000000,USB LS and FS,Byte 0x36
5.307146808000000,USB LS and FS,Byte 0x32
5.307147470000000,USB LS and FS,Byte 0x37
5.307148132000000,USB LS and FS,Byte 0x38
5.307148794000000,USB LS and FS,Byte 0x37
5.307149458000000,USB LS and FS,Byte 0x37
5.307150120000000,USB LS and FS,Byte 0x66
5.307150780000000,USB LS and FS,Byte 0x34
5.307151442000000,USB LS and FS,Byte 0x32
5.307152106000000,USB LS and FS,Byte 0x38
5.307152766000000,USB LS and FS,Byte 0x66
5.307153430000000,USB LS and FS,Byte 0x33
5.307154092000000,USB LS and FS,Byte 0x34
5.307154754000000,USB LS and FS,Byte 0x05
5.307155416000000,USB LS and FS,Byte 0x0A
5.307156078000000,USB LS and FS,Byte 0x02
5.307156740000000,USB LS and FS,Byte 0xAB
5.307157402000000,USB LS and FS,Byte 0x55
5.307158064000000,USB LS and FS,Byte 0xAA
5.307158728000000,USB LS and FS,Byte 0x53
5.307159390000000,USB LS and FS,Byte 0x03
5.307160052000000,USB LS and FS,Byte 0x15
5.307160716000000,USB LS and FS,Byte 0x01
5.307161378000000,USB LS and FS,Byte 0x6A
5.307162040000000,USB LS and FS,Byte 0x32
5.307162702000000,USB LS and FS,Byte 0x36
5.307163364000000,USB LS and FS,Byte 0x30
5.307164026000000,USB LS and FS,Byte 0x03
5.307164690000000,USB LS and FS,Byte 0x4F
5.307165352000000,USB LS and FS,Byte 0x07
5.307166014000000,USB LS and FS,Byte 0xC5
5.307166676000000,USB LS and FS,Byte 0x67
5.307167336000000,USB LS and FS,Byte 0xF9
5.307168000000000,USB LS and FS,Byte 0x49
5.307168742000000,USB LS and FS,Byte 0xA2
5.307169406000000,USB LS and FS,Byte 0x37
5.307170068000000,USB LS and FS,Byte 0x37
5.307170732000000,USB LS and FS,Byte 0x37
5.307171394000000,USB LS and FS,Byte 0x41
5.307172054000000,USB LS and FS,Byte 0x43
5.307172716000000,USB LS and FS,Byte 0x32
5.307173378000000,USB LS and FS,Byte 0x36
5.307174042000000,USB LS and FS,Byte 0x30
5.307174704000000,USB LS and FS,Byte 0x02
5.307175368000000,USB LS and FS,Byte 0x11
5.307176028000000,USB LS and FS,Byte 0x67
5.307176690000000,USB LS and FS,Byte 0x00
5.307177354000000,USB LS and FS,Byte 0x01
5.307178014000000,USB LS and FS,Byte 0x00
5.307178678000000,USB LS and FS,Byte 0x00
5.307179340000000,USB LS and FS,Byte 0x06
5.307180004000000,USB LS and FS,Byte 0x25
5.307180666000000,USB LS and FS,Byte 0x07
5.307181328000000,USB LS and FS,Byte 0x82
5.607320058000000,USB LS and FS,byte=0xAA
5.607320726000000,USB LS and FS,byte=0x55
5.607321392000000,USB LS and FS,byte=0x53
5.607322060000000,USB LS and FS,byte=0x03
5.607322724000000,USB LS and FS,byte=0x16
5.607323392000000,USB LS and FS,byte=0x01
5.607324060000000,USB LS and FS,byte=0x6B
5.620128504000000,USB LS and FS,Byte 0x27
5.620129166000000,USB LS and FS,Byte 0x55
5.620129828000000,USB LS and FS,Byte 0xAA
5.620130490000000,USB LS and FS,Byte 0x53
5.620131152000000,USB LS and FS,Byte 0x16
5.620131818000000,USB LS and FS,Byte 0xFF
5.620132562000000,USB LS and FS,Byte 0x02
5.620133228000000,USB LS and FS,Byte 0x67
5.620133890000000,USB LS and FS,Byte 0x55
5.620134550000000,USB LS and FS,Byte 0xAA
5.620135216000000,USB LS and FS,Byte 0x53
5.620135878000000,USB LS and FS,Byte 0x1C
5.620136542000000,USB LS and FS,Byte 0x17
5.620137204000000,USB LS and FS,Byte 0x30
5.620137868000000,USB LS and FS,Byte 0x2E
5.620138530000000,USB LS and FS,Byte 0x30
5.620139194000000,USB LS and FS,Byte 0x2E
5.620139858000000,USB LS and FS,Byte 0x30
5.620140520000000,USB LS and FS,Byte 0x2E
5.620141184000000,USB LS and FS,Byte 0x33
5.620141848000000,USB LS and FS,Byte 0x30
5.620142510000000,USB LS and FS,Byte 0x20
5.620143172000000,USB LS and FS,Byte 0x56
5.620143838000000,USB LS and FS,Byte 0x31
5.620144498000000,USB LS and FS,Byte 0x2E
5.620145162000000,USB LS and FS,Byte 0x34
5.620145822000000,USB LS and FS,Byte 0x20
5.620146486000000,USB LS and FS,Byte 0x44
5.620147150000000,USB LS and FS,Byte 0x6F
5.620147812000000,USB LS and FS,Byte 0x6E
5.620148476000000,USB LS and FS,Byte 0x67
5.620149138000000,USB LS and FS,Byte 0x6C
5.620149800000000,USB LS and FS,Byte 0x65
5.620150464000000,USB LS and FS,Byte 0x20
5.620151128000000,USB LS and FS,Byte 0x55
5.620151788000000,USB LS and FS,Byte 0x44
5.620152454000000,USB LS and FS,Byte 0x33
5.620153116000000,USB LS and FS,Byte 0x55
5.620153780000000,USB LS and FS,Byte 0x07
5.620154442000000,USB LS and FS,Byte 0xC5
5.620155106000000,USB LS and FS,Byte 0x67
5.620155770000000,USB LS and FS,Byte 0xF9
5.620156434000000,USB LS and FS,Byte 0x49
5.620157176000000,USB LS and FS,Byte 0xA2
5.620157840000000,USB LS and FS,Byte 0x37
5.620158504000000,USB LS and FS,Byte 0x37
5.620159166000000,USB LS and FS,Byte 0x37
5.620159828000000,USB LS and FS,Byte 0x41
5.620160492000000,USB LS and FS,Byte 0x43
5.620161154000000,USB LS and FS,Byte 0x32
5.620161816000000,USB LS and FS,Byte 0x36
5.620162480000000,USB LS and FS,Byte 0x30
5.620163144000000,USB LS and FS,Byte 0x02
5.620163806000000,USB LS and FS,Byte 0x11
5.620164470000000,USB LS and FS,Byte 0x67
5.620165132000000,USB LS and FS,Byte 0x00
5.620165798000000,USB LS and FS,Byte 0x01
5.620166458000000,USB LS and FS,Byte 0x00
5.620167120000000,USB LS and FS,Byte 0x00
5.620167784000000,USB LS and FS,Byte 0x06
5.620168446000000,USB LS and FS,Byte 0x25
5.620169110000000,USB LS and FS,Byte 0x07
5.620169772000000,USB LS and FS,Byte 0x82
5.621400892000000,USB LS and FS,byte=0xAA
5.621401560000000,USB LS and FS,byte=0x55
5.621402228000000,USB LS and FS,byte=0x53
5.621402894000000,USB LS and FS,byte=0x17
5.621403560000000,USB LS and FS,byte=0xFF
5.621404310000000,USB LS and FS,byte=0x02
5.621404976000000,USB LS and FS,byte=0x68
7.314328150000000,USB LS and FS,byte=0xAA
7.314328818000000,USB LS and FS,byte=0x55
7.314329486000000,USB LS and FS,byte=0x53
7.314330154000000,USB LS and FS,byte=0x03
7.314330818000000,USB LS and FS,byte=0x2E
7.314331486000000,USB LS and FS,byte=0x01
7.314332152000000,USB LS and FS,byte=0x83
7.324064394000000,USB LS and FS,Byte 0x0F
7.324065056000000,USB LS and FS,Byte 0x55
7.324065718000000,USB LS and FS,Byte 0xAA
7.324066382000000,USB LS and FS,Byte 0x53
7.324067044000000,USB LS and FS,Byte 0x2E
7.324067710000000,USB LS and FS,Byte 0xFF
7.324068454000000,USB LS and FS,Byte 0x02
7.324069118000000,USB LS and FS,Byte 0x7F
7.324069862000000,USB LS and FS,Byte 0x55
7.324070524000000,USB LS and FS,Byte 0xAA
7.324071188000000,USB LS and FS,Byte 0x53
7.324071848000000,USB LS and FS,Byte 0x04
7.324072514000000,USB LS and FS,Byte 0x2F
7.324073174000000,USB LS and FS,Byte 0x02
7.324073838000000,USB LS and FS,Byte 0x01
7.324074502000000,USB LS and FS,Byte 0x87
7.324075162000000,USB LS and FS,Byte 0x2E
7.324075826000000,USB LS and FS,Byte 0x30
7.324076488000000,USB LS and FS,Byte 0x2E
7.324077152000000,USB LS and FS,Byte 0x33
7.324077814000000,USB LS and FS,Byte 0x30
7.324078476000000,USB LS and FS,Byte 0x20
7.324079138000000,USB LS and FS,Byte 0x56
7.324079802000000,USB LS and FS,Byte 0x31
7.324080464000000,USB LS and FS,Byte 0x2E
7.324081126000000,USB LS and FS,Byte 0x34
7.324081790000000,USB LS and FS,Byte 0x20
7.324082450000000,USB LS and FS,Byte 0x44
7.324083114000000,USB LS and FS,Byte 0x6F
7.324083776000000,USB LS and FS,Byte 0x6E
7.324084440000000,USB LS and FS,Byte 0x67
7.324085102000000,USB LS and FS,Byte 0x6C
7.324085766000000,USB LS and FS,Byte 0x65
7.324086428000000,USB LS and FS,Byte 0x20
7.324087092000000,USB LS and FS,Byte 0x55
7.324087754000000,USB LS and FS,Byte 0x44
7.324088418000000,USB LS and FS,Byte 0x33
7.324089080000000,USB LS and FS,Byte 0x55
7.324089742000000,USB LS and FS,Byte 0x07
7.324090406000000,USB LS and FS,Byte 0xC5
7.324091068000000,USB LS and FS,Byte 0x67
7.324091730000000,USB LS and FS,Byte 0xF9
7.324092394000000,USB LS and FS,Byte 0x49
7.324093138000000,USB LS and FS,Byte 0xA2
7.324093800000000,USB LS and FS,Byte 0x37
7.324094462000000,USB LS and FS,Byte 0x37
7.324095128000000,USB LS and FS,Byte 0x37
7.324095790000000,USB LS and FS,Byte 0x41
7.324096452000000,USB LS and FS,Byte 0x43
7.324097114000000,USB LS and FS,Byte 0x32
7.324097776000000,USB LS and FS,Byte 0x36
7.324098440000000,USB LS and FS,Byte 0x30
7.324099102000000,USB LS and FS,Byte 0x02
7.324099766000000,USB LS and FS,Byte 0x11
7.324100428000000,USB LS and FS,Byte 0x67
7.324101090000000,USB LS and FS,Byte 0x00
7.324101752000000,USB LS and FS,Byte 0x01
7.324102414000000,USB LS and FS,Byte 0x00
7.324103078000000,USB LS and FS,Byte 0x00
7.324103740000000,USB LS and FS,Byte 0x06
7.324104404000000,USB LS and FS,Byte 0x25
7.324105068000000,USB LS and FS,Byte 0x07
7.324105728000000,USB LS and FS,Byte 0x82
7.324988312000000,USB LS and FS,byte=0xAA
7.324988980000000,USB LS and FS,byte=0x55
7.324989648000000,USB LS and FS,byte=0x53
7.324990314000000,USB LS and FS,byte=0x2F
7.324990978000000,USB LS and FS,byte=0xFF
7.324991728000000,USB LS and FS,byte=0x02
7.324992396000000,USB LS and FS,byte=0x80
7.815368522000000,USB LS and FS,byte=0xAA
7.815369190000000,USB LS and FS,byte=0x55
7.815369858000000,USB LS and FS,byte=0x53
7.815370522000000,USB LS and FS,byte=0x04
7.815371190000000,USB LS and FS,byte=0x30
7.815371858000000,USB LS and FS,byte=0x02
7.815372524000000,USB LS and FS,byte=0x01
7.815373190000000,USB LS and FS,byte=0x88
7.828045466000000,USB LS and FS,Byte 0x25
7.828046128000000,USB LS and FS,Byte 0x55
7.828046792000000,USB LS and FS,Byte 0xAA
7.828047454000000,USB LS and FS,Byte 0x53
7.828048120000000,USB LS and FS,Byte 0x30
7.828048784000000,USB LS and FS,Byte 0xFF
7.828049528000000,USB LS and FS,Byte 0x02
7.828050194000000,USB LS and FS,Byte 0x81
7.828050856000000,USB LS and FS,Byte 0x55
7.828051518000000,USB LS and FS,Byte 0xAA
7.828052182000000,USB LS and FS,Byte 0x53
7.828052846000000,USB LS and FS,Byte 0x0B
7.828053510000000,USB LS and FS,Byte 0x31
7.828054172000000,USB LS and FS,Byte 0x37
7.828054836000000,USB LS and FS,Byte 0x37
7.828055498000000,USB LS and FS,Byte 0x37
7.828056160000000,USB LS and FS,Byte 0x42
